<Qucs Dataset 0.0.19>
<indep acfrequency 201>
  +1.00000000000000000000e+00
  +1.08392691402120355804e+00
  +1.17489755493952952037e+00
  +1.27350308101666165328e+00
  +1.38038426460288476960e+00
  +1.49623565609443343050e+00
  +1.62181009735893000290e+00
  +1.75792361395869267682e+00
  +1.90546071796324723024e+00
  +2.06538015581052913916e+00
  +2.23872113856833943046e+00
  +2.42661009508241543031e+00
  +2.63026799189538174062e+00
  +2.85101826750390952014e+00
  +3.09029543251359051226e+00
  +3.34965439157827615801e+00
  +3.63078054770101354976e+00
  +3.93550075455777514932e+00
  +4.26579518801592616484e+00
  +4.62381021399260205840e+00
  +5.01187233627272288317e+00
  +5.43250331492433247149e+00
  +5.88843655355588957434e+00
  +6.38263486190548601229e+00
  +6.91830970918936483116e+00
  +7.49894209332455918826e+00
  +8.12830516164099314835e+00
  +8.81048873008013977426e+00
  +9.54992586021435840848e+00
  +1.03514216667934384475e+01
  +1.12201845430196307518e+01
  +1.21618600064636783742e+01
  +1.31825673855640701504e+01
  +1.42889395851110290181e+01
  +1.54881661891248167962e+01
  +1.67880401812256003780e+01
  +1.81970085860998338489e+01
  +1.97242273611485394724e+01
  +2.13796208950223167733e+01
  +2.31739464996847814859e+01
  +2.51188643150957986450e+01
  +2.72270130807791268523e+01
  +2.95120922666638634269e+01
  +3.19889510969139756469e+01
  +3.46736850452531655264e+01
  +3.75837404288444218992e+01
  +4.07380277804112580498e+01
  +4.41570447353312403038e+01
  +4.78630092322638347468e+01
  +5.18800038928961129159e+01
  +5.62341325190349152763e+01
  +6.09536897240169039947e+01
  +6.60693448007596231264e+01
  +7.16143410212902011835e+01
  +7.76247116628691458118e+01
  +8.41395141645195252522e+01
  +9.12010839355909723736e+01
  +9.88553094656938498019e+01
  +1.07151930523760654523e+02
  +1.16144861384034257412e+02
  +1.25892541179416653563e+02
  +1.36458313658892450349e+02
  +1.47910838816820700004e+02
  +1.60324539069004202929e+02
  +1.73780082874937534143e+02
  +1.88364908948979973502e+02
  +2.04173794466952955418e+02
  +2.21309470960563714925e+02
  +2.39883291901949121439e+02
  +2.60015956316527194758e+02
  +2.81838293126445307735e+02
  +3.05492111321551419678e+02
  +3.31131121482591083804e+02
  +3.58921934645005080711e+02
  +3.89045144994280633455e+02
  +4.21696503428582161632e+02
  +4.57088189614874806921e+02
  +4.95450190804790224774e+02
  +5.37031796370252550332e+02
  +5.82103217770871538050e+02
  +6.30957344480193228264e+02
  +6.83911647281429054601e+02
  +7.41310241300917596163e+02
  +8.03526122185617055038e+02
  +8.70963589956080909360e+02
  +9.44060876285923427531e+02
  +1.02329299228075376504e+03
  +1.10917481526240135281e+03
  +1.20226443461741268948e+03
  +1.30316677845229878585e+03
  +1.41253754462275446713e+03
  +1.53108746168202969784e+03
  +1.65958690743755960284e+03
  +1.79887091512878782851e+03
  +1.94984459975804475107e+03
  +2.11348903983664740736e+03
  +2.29086765276777259714e+03
  +2.48313310529556929396e+03
  +2.69153480392691608358e+03
  +2.91742701400116629884e+03
  +3.16227766016838040741e+03
  +3.42767786546450361129e+03
  +3.71535229097172395996e+03
  +4.02717034325458826061e+03
  +4.36515832240166309930e+03
  +4.73151258961480652943e+03
  +5.12861383991364891699e+03
  +5.55904257270403468283e+03
  +6.02559586074357412144e+03
  +6.53130552647471722594e+03
  +7.07945784384138278256e+03
  +7.67361489361819076294e+03
  +8.31763771102670943947e+03
  +9.01571137605956391781e+03
  +9.77237220955809971201e+03
  +1.05925372517728956154e+04
  +1.14815362149688317004e+04
  +1.24451461177138498897e+04
  +1.34896288259165303316e+04
  +1.46217717445671714813e+04
  +1.58489319246111190296e+04
  +1.71790838715758873150e+04
  +1.86208713666286748776e+04
  +2.01836636368156032404e+04
  +2.18776162394955135824e+04
  +2.37137370566165300261e+04
  +2.57039578276886495587e+04
  +2.78612116862977090932e+04
  +3.01995172040201578056e+04
  +3.27340694878838039585e+04
  +3.54813389233575144317e+04
  +3.84591782045353829744e+04
  +4.16869383470335524180e+04
  +4.51855944374922328279e+04
  +4.89778819368445983855e+04
  +5.30884444230987937772e+04
  +5.75439937337157316506e+04
  +6.23734835482419512118e+04
  +6.76082975391981744906e+04
  +7.32824533138903934741e+04
  +7.94328234724281064700e+04
  +8.60993752184599870816e+04
  +9.33254300796991446987e+04
  +1.01157945425989862997e+05
  +1.09647819614318475942e+05
  +1.18850222743701786385e+05
  +1.28824955169313281658e+05
  +1.39636836105593829416e+05
  +1.51356124843620840693e+05
  +1.64058977319953904953e+05
  +1.77827941003892192384e+05
  +1.92752491319093445782e+05
  +2.08929613085403718287e+05
  +2.26464430759306036634e+05
  +2.45470891568503051531e+05
  +2.66072505979880865198e+05
  +2.88403150312660436612e+05
  +3.12607936712395166978e+05
  +3.38844156139202706981e+05
  +3.67282300498084689025e+05
  +3.98107170553497155197e+05
  +4.31519076827764976770e+05
  +4.67735141287197766360e+05
  +5.06990708274704637006e+05
  +5.49540873857624712400e+05
  +5.95662143529010354541e+05
  +6.45654229034655261785e+05
  +6.99841996002272935584e+05
  +7.58577575029184226878e+05
  +8.22242649947071447968e+05
  +8.91250938133745570667e+05
  +9.66050878989813034423e+05
  +1.04712854805089882575e+06
  +1.13501081567231402732e+06
  +1.23026877081238199025e+06
  +1.33352143216332420707e+06
  +1.44543977074592723511e+06
  +1.56675107010814826936e+06
  +1.69824365246174274944e+06
  +1.84077200146895693615e+06
  +1.99526231496888003312e+06
  +2.16271852372701978311e+06
  +2.34422881531992089003e+06
  +2.54097270554930297658e+06
  +2.75422870333816343918e+06
  +2.98538261891796067357e+06
  +3.23593656929628271610e+06
  +3.50751873952567903325e+06
  +3.80189396320560947061e+06
  +4.12097519097329769284e+06
  +4.46683592150963284075e+06
  +4.84172367584099341184e+06
  +5.24807460249772481620e+06
  +5.68852930843841098249e+06
  +6.16595001861481647938e+06
  +6.68343917568614985794e+06
  +7.24435960074990242720e+06
  +7.85235634610071685165e+06
  +8.51138038202376104891e+06
  +9.22571427154763974249e+06
  +1.00000000000000055879e+07
</indep>
<dep Pr1.v acfrequency>
  +1.00000000086852525172e+00
  +1.00000000102042818639e+00
  +1.00000000119889853600e+00
  +1.00000000140858302800e+00
  +1.00000000165494062898e+00
  +1.00000000194438576351e+00
  +1.00000000228445395933e+00
  +1.00000000268399946712e+00
  +1.00000000315342418844e+00
  +1.00000000370495056856e+00
  +1.00000000435293734391e+00
  +1.00000000511425546357e+00
  +1.00000000600872640533e+00
  +1.00000000705963798531e+00
  +1.00000000829435120586e+00
  +1.00000000974501301876e+00
  +1.00000001144939187903e+00
  +1.00000001345186251278e+00
  +1.00000001580456054917e+00
  +1.00000001856873965700e+00
  +1.00000002181636671317e+00
  +1.00000002563199608119e+00
  +1.00000003011496962912e+00
  +1.00000003538200443742e+00
  +1.00000004157023059115e+00
  +1.00000004884076298950e+00
  +1.00000005738289332591e+00
  +1.00000006741902169871e+00
  +1.00000007921044486991e+00
  +1.00000009306415926780e+00
  +1.00000010934085481473e+00
  +1.00000012846430563762e+00
  +1.00000015093240191000e+00
  +1.00000017733011437038e+00
  +1.00000020834472458375e+00
  +1.00000024478371618564e+00
  +1.00000028759580206206e+00
  +1.00000033789562170483e+00
  +1.00000039699276310756e+00
  +1.00000046642585926904e+00
  +1.00000054800264592814e+00
  +1.00000064384703057918e+00
  +1.00000075645438735172e+00
  +1.00000088875652770604e+00
  +1.00000104419803359512e+00
  +1.00000122682594061452e+00
  +1.00000144139510727115e+00
  +1.00000169349201395441e+00
  +1.00000198968021614121e+00
  +1.00000233767123436479e+00
  +1.00000274652534049125e+00
  +1.00000322688745724165e+00
  +1.00000379126432314969e+00
  +1.00000445435013696205e+00
  +1.00000523340916180892e+00
  +1.00000614872525628307e+00
  +1.00000722413003839684e+00
  +1.00000848762344274334e+00
  +1.00000997210283348871e+00
  +1.00001171621967088754e+00
  +1.00001376538605146749e+00
  +1.00001617295735178992e+00
  +1.00001900162179668818e+00
  +1.00002232503318255752e+00
  +1.00002622972931631828e+00
  +1.00003081738621579788e+00
  +1.00003620746686872067e+00
  +1.00004254033368567001e+00
  +1.00004998090590135895e+00
  +1.00005872295746622846e+00
  +1.00006899416775074663e+00
  +1.00008106205716384984e+00
  +1.00009524096304436291e+00
  +1.00011190023857921005e+00
  +1.00013147388978951291e+00
  +1.00015447190365058816e+00
  +1.00018149356527352722e+00
  +1.00021324311500658943e+00
  +1.00025054815879776982e+00
  +1.00029438131903236631e+00
  +1.00034588570042015654e+00
  +1.00040640484899601148e+00
  +1.00047751800500583919e+00
  +1.00056108159622203502e+00
  +1.00065927809166788087e+00
  +1.00077467354253113463e+00
  +1.00091028538420534488e+00
  +1.00106966236960293060e+00
  +1.00125697885993814040e+00
  +1.00147714612869287443e+00
  +1.00173594385467623624e+00
  +1.00204017561285430027e+00
  +1.00239785294521710490e+00
  +1.00281841354481549011e+00
  +1.00331298026202464513e+00
  +1.00389466910589897353e+00
  +1.00457895624876525353e+00
  +1.00538411636102598123e+00
  +1.00633174755712140325e+00
  +1.00744740202973392940e+00
  +1.00876134637295389318e+00
  +1.01030948204326143092e+00
  +1.01213446493790582004e+00
  +1.01428707447630594984e+00
  +1.01682789799003892028e+00
  +1.01982941731570475596e+00
  +1.02337861367838289794e+00
  +1.02758024788635182745e+00
  +1.03256103103519714104e+00
  +1.03847498481346356414e+00
  +1.04551041338225036981e+00
  +1.05389909185389796242e+00
  +1.06392855416586940009e+00
  +1.07595879328405508168e+00
  +1.09044536787091361774e+00
  +1.10797201565105085663e+00
  +1.12929772071930756283e+00
  +1.15542636525248010315e+00
  +1.18771278284181547313e+00
  +1.22802961748786265694e+00
  +1.27904006645568801837e+00
  +1.34466428974548213304e+00
  +1.43092159050758360728e+00
  +1.54755648526156819322e+00
  +1.71145630708114260266e+00
  +1.95468112769744895019e+00
  +2.34647539822877337912e+00
  +3.06927512664907586881e+00
  +4.81010626570664712176e+00
  +1.44178446191870435200e+01
  -1.07056719608256702969e+01
  -3.51317400014949887677e+00
  -1.96338757210822101307e+00
  -1.29315779857803714314e+00
  -9.22980242785433557806e-01
  -6.90685692974010390088e-01
  -5.33061204010378264506e-01
  -4.20352620708869306743e-01
  -3.36708719845051518416e-01
  -2.72906665547368587621e-01
  -2.23213116939335043387e-01
  -1.83875374097575983168e-01
  -1.52333641302102917869e-01
  -1.26781962032452594213e-01
  -1.05910107752771182055e-01
  -8.87449693572739534142e-02
  -7.45493660635983684815e-02
  -6.27553693969625514537e-02
  -5.29191175575725106239e-02
  -4.46894265239963783820e-02
  -3.77855006720005728860e-02
  -3.19807906036886357981e-02
  -2.70910941732521066971e-02
  -2.29656441300830349572e-02
  -1.94803356562744216240e-02
  -1.65325123558354124265e-02
  -1.40369044378661541467e-02
  -1.19224306579755502666e-02
  -1.01296561633675164665e-02
  -8.60875435747444212042e-03
  -7.31786033962016253807e-03
  -6.22173164342761531725e-03
  -5.29065237314143253788e-03
  -4.49953175445415645695e-03
  -3.82715916418770608215e-03
  -3.25558597559257685214e-03
  -2.76961081590155772797e-03
  -2.35634961775478459639e-03
  -2.00487553912427098057e-03
  -1.70591670287187878452e-03
  -1.45160196715048996595e-03
  -1.23524672818512586993e-03
  -1.05117218606652759391e-03
  -8.94552653061561923661e-04
  -7.61286413594678920171e-04
  -6.47886401821109124931e-04
  -5.51387582095333060248e-04
  -4.69268427062271458513e-04
  -3.99384308922482724694e-04
  -3.39910968413508580641e-04
  -2.89296516469137073024e-04
  -2.46220665932532327413e-04
  -2.09560093583353705422e-04
  -1.78359002935013727462e-04
  -1.51804101322715692159e-04
  -1.29203325272708578102e-04
  -1.09967749741469048648e-04
  -9.35962026092469149413e-05
  -7.96621783457198220663e-05
  -6.78027061463120229567e-05
  -5.77088798243875636743e-05
  -4.91178008064035203826e-05
  -4.18057229452551033788e-05
  -3.55822195750723569221e-05
  -3.02852201480777550658e-05
  -2.57767866534290984455e-05
  -2.19395194374091836802e-05
  -1.86734985461618481321e-05
  -1.58936807381205821074e-05
  -1.35276842372382131757e-05
  -1.15139034368934378239e-05
</dep>
<dep V1.i acfrequency>
  +0.00000000000000000000e+00-j2.76460159751883650036e-05
  +0.00000000000000000000e+00-j2.99662606572577043052e-05
  +0.00000000000000000000e+00-j3.24812354327303683143e-05
  +0.00000000000000000000e+00-j3.52072857408778890423e-05
  +0.00000000000000000000e+00-j3.81621249011375874693e-05
  +0.00000000000000000000e+00-j4.13649541664500128464e-05
  +0.00000000000000000000e+00-j4.48365864145851535853e-05
  +0.00000000000000000000e+00-j4.85995843913967107575e-05
  +0.00000000000000000000e+00-j5.26783953161138343113e-05
  +0.00000000000000000000e+00-j5.70995309613887984976e-05
  +0.00000000000000000000e+00-j6.18917186295405124651e-05
  +0.00000000000000000000e+00-j6.70860994225562891694e-05
  +0.00000000000000000000e+00-j7.27164301501152744635e-05
  +0.00000000000000000000e+00-j7.88192961516028802686e-05
  +0.00000000000000000000e+00-j8.54343550410146363675e-05
  +0.00000000000000000000e+00-j9.26045968228532331021e-05
  +0.00000000000000000000e+00-j1.00376615831569389933e-04
  +0.00000000000000000000e+00-j1.08800914503460861523e-04
  +0.00000000000000000000e+00-j1.17932239890563910715e-04
  +0.00000000000000000000e+00-j1.27829929269724252173e-04
  +0.00000000000000000000e+00-j1.38558300771952642560e-04
  +0.00000000000000000000e+00-j1.50187072206493880391e-04
  +0.00000000000000000000e+00-j1.62791809443954701118e-04
  +0.00000000000000000000e+00-j1.76454424367505506620e-04
  +0.00000000000000000000e+00-j1.91263700109703122920e-04
  +0.00000000000000000000e+00-j2.07315873588473955887e-04
  +0.00000000000000000000e+00-j2.24715255788391396041e-04
  +0.00000000000000000000e+00-j2.43574914571326775177e-04
  +0.00000000000000000000e+00-j2.64017407511359797345e-04
  +0.00000000000000000000e+00-j2.86175575895821485747e-04
  +0.00000000000000000000e+00-j3.10193410807119878455e-04
  +0.00000000000000000000e+00-j3.36226990149391909753e-04
  +0.00000000000000000000e+00-j3.64445487985379560324e-04
  +0.00000000000000000000e+00-j3.95032278012882919274e-04
  +0.00000000000000000000e+00-j4.28186124816205815596e-04
  +0.00000000000000000000e+00-j4.64122473354174731007e-04
  +0.00000000000000000000e+00-j5.03074851012326853053e-04
  +0.00000000000000000000e+00-j5.45296384496881943009e-04
  +0.00000000000000000000e+00-j5.91061444763117975129e-04
  +0.00000000000000000000e+00-j6.40667430216264343658e-04
  +0.00000000000000000000e+00-j6.94436698652118461483e-04
  +0.00000000000000000000e+00-j7.52718663863760064844e-04
  +0.00000000000000000000e+00-j8.15892064430695832487e-04
  +0.00000000000000000000e+00-j8.84367426080127721176e-04
  +0.00000000000000000000e+00-j9.58589729521711628527e-04
  +0.00000000000000000000e+00-j1.03904130219993617867e-03
  +0.00000000000000000000e+00-j1.12624495315456719588e-03
  +0.00000000000000000000e+00-j1.22076737024579516644e-03
  +0.00000000000000000000e+00-j1.32322280446962197743e-03
  +0.00000000000000000000e+00-j1.43427706053351686211e-03
  +0.00000000000000000000e+00-j1.55465182584203667586e-03
  +0.00000000000000000000e+00-j1.68512936074435111175e-03
  +0.00000000000000000000e+00-j1.82655758310196008297e-03
  +0.00000000000000000000e+00-j1.97985558072954819994e-03
  +0.00000000000000000000e+00-j2.14601958576748517646e-03
  +0.00000000000000000000e+00-j2.32612945158939361454e-03
  +0.00000000000000000000e+00-j2.52135567378327643193e-03
  +0.00000000000000000000e+00-j2.73296700122666090874e-03
  +0.00000000000000000000e+00-j2.96233868653629148215e-03
  +0.00000000000000000000e+00-j3.21096143091388445956e-03
  +0.00000000000000000000e+00-j3.48045108081476489356e-03
  +0.00000000000000000000e+00-j3.77255914075050021242e-03
  +0.00000000000000000000e+00-j4.08918417078213067284e-03
  +0.00000000000000000000e+00-j4.43238414434510286100e-03
  +0.00000000000000000000e+00-j4.80438984703710457447e-03
  +0.00000000000000000000e+00-j5.20761940586951087989e-03
  +0.00000000000000000000e+00-j5.64469404441080967877e-03
  +0.00000000000000000000e+00-j6.11845516942461503662e-03
  +0.00000000000000000000e+00-j6.63198290261470153883e-03
  +0.00000000000000000000e+00-j7.18861618219609511959e-03
  +0.00000000000000000000e+00-j7.79197456957540085520e-03
  +0.00000000000000000000e+00-j8.44598190985005464748e-03
  +0.00000000000000000000e+00-j9.15489200750618445368e-03
  +0.00000000000000000000e+00-j9.92331649489835293521e-03
  +0.00000000000000000000e+00-j1.07562550878454628311e-02
  +0.00000000000000000000e+00-j1.16591284418387872851e-02
  +0.00000000000000000000e+00-j1.26378138440001366177e-02
  +0.00000000000000000000e+00-j1.36986840002464426574e-02
  +0.00000000000000000000e+00-j1.48486492046032893949e-02
  +0.00000000000000000000e+00-j1.60952032096310336529e-02
  +0.00000000000000000000e+00-j1.74464731527718304449e-02
  +0.00000000000000000000e+00-j1.89112739358786724475e-02
  +0.00000000000000000000e+00-j2.04991675037903067769e-02
  +0.00000000000000000000e+00-j2.22205275255431475290e-02
  +0.00000000000000000000e+00-j2.40866100493191889753e-02
  +0.00000000000000000000e+00-j2.61096307830139123807e-02
  +0.00000000000000000000e+00-j2.83028497485933797084e-02
  +0.00000000000000000000e+00-j3.06806641749711693501e-02
  +0.00000000000000000000e+00-j3.32587106352882702631e-02
  +0.00000000000000000000e+00-j3.60539776069209658149e-02
  +0.00000000000000000000e+00-j3.90849298451437232593e-02
  +0.00000000000000000000e+00-j4.23716462238193092293e-02
  +0.00000000000000000000e+00-j4.59359730239895444615e-02
  +0.00000000000000000000e+00-j4.98016950609311837006e-02
  +0.00000000000000000000e+00-j5.39947275571215773438e-02
  +0.00000000000000000000e+00-j5.85433323232288985172e-02
  +0.00000000000000000000e+00-j6.34783626444016674251e-02
  +0.00000000000000000000e+00-j6.88335423402366974877e-02
  +0.00000000000000000000e+00-j7.46457858493416309686e-02
  +0.00000000000000000000e+00-j8.09555679855329529682e-02
  +0.00000000000000000000e+00-j8.78073543620314228564e-02
  +0.00000000000000000000e+00-j9.52501065755767400978e-02
  +0.00000000000000000000e+00-j1.03337880353577160619e-01
  +0.00000000000000000000e+00-j1.12130540374018705663e-01
  +0.00000000000000000000e+00-j1.21694622912815089699e-01
  +0.00000000000000000000e+00-j1.32104387640967796402e-01
  +0.00000000000000000000e+00-j1.43443113935267319015e-01
  +0.00000000000000000000e+00-j1.55804716692620054408e-01
  +0.00000000000000000000e+00-j1.69295784436516466576e-01
  +0.00000000000000000000e+00-j1.84038182449988430012e-01
  +0.00000000000000000000e+00-j2.00172421984387505223e-01
  +0.00000000000000000000e+00-j2.17862083207212453573e-01
  +0.00000000000000000000e+00-j2.37299710654804846266e-01
  +0.00000000000000000000e+00-j2.58714802566185786414e-01
  +0.00000000000000000000e+00-j2.82384835857273752691e-01
  +0.00000000000000000000e+00-j3.08650788149817500994e-01
  +0.00000000000000000000e+00-j3.37939485381245408036e-01
  +0.00000000000000000000e+00-j3.70796597258769788930e-01
  +0.00000000000000000000e+00-j4.07936770664172054790e-01
  +0.00000000000000000000e+00-j4.50322357088913716172e-01
  +0.00000000000000000000e+00-j4.99291887283046409429e-01
  +0.00000000000000000000e+00-j5.56779476300230169450e-01
  +0.00000000000000000000e+00-j6.25710582352096644776e-01
  +0.00000000000000000000e+00-j7.10765552296800606769e-01
  +0.00000000000000000000e+00-j8.19983587345480158248e-01
  +0.00000000000000000000e+00-j9.68530200644779903918e-01
  +0.00000000000000000000e+00-j1.18902280909470903225e+00
  +0.00000000000000000000e+00-j1.56718260660849262322e+00
  +0.00000000000000000000e+00-j2.42541815908023972170e+00
  +0.00000000000000000000e+00-j6.97631711644802621208e+00
  -0.00000000000000000000e+00+j4.76023241998032453637e+00
  -0.00000000000000000000e+00+j1.33605737074017683064e+00
  +0.00000000000000000000e+00+j5.55141364720838970115e-01
  +0.00000000000000000000e+00+j1.83106601013270808842e-01
  +0.00000000000000000000e+00-j5.21440421844707735488e-02
